
T31F4 029:644 SEGGER J-Link V6.18a Log File (0001ms, 0315ms total)
T31F4 029:644 DLL Compiled: Aug 11 2017 17:53:19 (0001ms, 0315ms total)
T31F4 029:644 Logging started @ 2018-04-24 18:48 (0001ms, 0315ms total)
T31F4 029:662 JLINK_ExecCommand("Device = AT91SAM4S8B", ...).   returns 0x00 (0003ms, 0318ms total)
T31F4 031:176 JLINK_ExecCommand("ProjectFile = D:\Git\ESD2_NetworkedProgrammer\NetworkedProgrammer\NetworkedProgrammer\jlink.config", ...).   returns 0x00 (0007ms, 0325ms total)
T31F4 031:199 JLINK_ExecCommand("Device = AT91SAM4S8B", ...).   returns 0x00 (0014ms, 0339ms total)
T31F4 031:213 JLINK_TIF_Select(JLINKARM_TIF_SWD)  returns 0x00 (0002ms, 0341ms total)
T31F4 031:215 JLINK_SetSpeed(4000) (0001ms, 0342ms total)
T31F4 031:216 JLINK_ResetPullsRESET(OFF) (0000ms, 0342ms total)
T31F4 031:216 JLINK_Connect() >0x10B TIF>Found SW-DP with ID 0x2BA01477 >0x0D TIF> >0x28 TIF> >0x0D TIF> >0x28 TIF> >0x0D TIF> >0x28 TIF> >0x0D TIF> >0x28 TIF> >0x0D TIF> >0x21 TIF> >0x0D TIF> >0x28 TIF>Scanning AP map to find all available APs >0x0D TIF> >0x28 TIF> >0x0D TIF> >0x21 TIF> >0x0D TIF> >0x21 TIF> >0x0D TIF> >0x28 TIF> >0x0D TIF> >0x21 TIF> >0x0D TIF> >0x21 TIF>AP[1]: Stopped AP scan as end of AP map has been reachedAP[0]: AHB-AP (IDR: 0x24770011)Iterating through AP map to find AHB-AP to use
 >0x42 TIF> >0x28 TIF> >0x0D TIF> >0x21 TIF> >0x0D TIF> >0x21 TIF> >0x42 TIF> >0x28 TIF> >0x0D TIF> >0x28 TIF> >0x0D TIF> >0x28 TIF> >0x0D TIF> >0x21 TIF> >0x0D TIF> >0x21 TIF>AP[0]: Core foundAP[0]: AHB-AP ROM base: 0xE00FF000 >0x0D TIF> >0x28 TIF> >0x0D TIF> >0x28 TIF> >0x0D TIF> >0x28 TIF> >0x0D TIF> >0x21 TIF> >0x0D TIF> >0x21 TIF>CPUID register: 0x410FC241. Implementer code: 0x41 (ARM)Found Cortex-M4 r0p1, Little endian. -- CPU_ReadMem(4 bytes @ 0xE000EDF0) -- CPU_WriteMem(4 bytes @ 0xE000EDF0)
 -- CPU_ReadMem(4 bytes @ 0xE0002000) -- CPU_ReadMem(4 bytes @ 0xE000EDFC) -- CPU_WriteMem(4 bytes @ 0xE000EDFC) -- CPU_ReadMem(4 bytes @ 0xE0001000) -- CPU_WriteMem(4 bytes @ 0xE0001000) -- CPU_ReadMem(4 bytes @ 0xE000ED88) -- CPU_WriteMem(4 bytes @ 0xE000ED88) -- CPU_ReadMem(4 bytes @ 0xE000ED88) -- CPU_WriteMem(4 bytes @ 0xE000ED88)CoreSight components:ROMTbl[0] @ E00FF000 -- CPU_ReadMem(16 bytes @ 0xE00FF000) -- CPU_ReadMem(16 bytes @ 0xE000EFF0) -- CPU_ReadMem(16 bytes @ 0xE000EFE0)
ROMTbl[0][0]: E000E000, CID: B105E00D, PID: 000BB000 SCS -- CPU_ReadMem(16 bytes @ 0xE0001FF0) -- CPU_ReadMem(16 bytes @ 0xE0001FE0)ROMTbl[0][1]: E0001000, CID: B105E00D, PID: 003BB002 DWT -- CPU_ReadMem(16 bytes @ 0xE0002FF0) -- CPU_ReadMem(16 bytes @ 0xE0002FE0)ROMTbl[0][2]: E0002000, CID: B105E00D, PID: 002BB003 FPB -- CPU_ReadMem(16 bytes @ 0xE0000FF0) -- CPU_ReadMem(16 bytes @ 0xE0000FE0)ROMTbl[0][3]: E0000000, CID: B105E00D, PID: 003BB001 ITM -- CPU_ReadMem(16 bytes @ 0xE00FF010)
 -- CPU_ReadMem(16 bytes @ 0xE0040FF0) -- CPU_ReadMem(16 bytes @ 0xE0040FE0)ROMTbl[0][4]: E0040000, CID: B105900D, PID: 000BB9A1 TPIU  returns 0x00 (0479ms, 0821ms total)
T31F4 031:695 JLINK_Halt()  returns 0x00 (0004ms, 0825ms total)
T31F4 031:699 JLINK_WriteMem(0x400E0A04, 0x0004 Bytes, ...) - Data: 0B 01 00 5A -- CPU_WriteMem(4 bytes @ 0x400E0A04)  returns 0x04 (0001ms, 0826ms total)
T31F4 031:700 JLINK_ReadMem (0x400E0A08, 0x0004 Bytes, ...) -- CPU_ReadMem(4 bytes @ 0x400E0A08) - Data: 01 00 00 00  returns 0x00 (0001ms, 0827ms total)
T31F4 031:701 JLINK_SetResetType(JLINKARM_CM3_RESET_TYPE_NORMAL)  returns JLINKARM_CM3_RESET_TYPE_NORMAL (0000ms, 0827ms total)
T31F4 031:701 JLINK_Reset() -- CPU_ReadMem(16 bytes @ 0x20000000) -- CPU_WriteMem(16 bytes @ 0x20000000) -- CPU_ReadMem(4 bytes @ 0xE000EDFC) -- CPU_WriteMem(4 bytes @ 0xE000EDFC) -- CPU_ReadMem(4 bytes @ 0xE0001000) -- CPU_WriteMem(4 bytes @ 0xE000EDFC) -- CPU_WriteMem(16 bytes @ 0x20000000) -- CPU_WriteMem(4 bytes @ 0xE0002000) -- CPU_ReadMem(4 bytes @ 0xE000EDFC) -- CPU_ReadMem(4 bytes @ 0xE0001000) (0026ms, 0853ms total)
T31F4 031:730 JLINK_JTAG_GetDeviceID(DeviceIndex = 0)  returns 0x00 (0000ms, 0853ms total)
T31F4 031:730 JLINK_ReadMemU32(0x400E0740, 0x0001 Items, ...) -- CPU_ReadMem(4 bytes @ 0x400E0740) - Data: E0 0A 9C 28  returns 0x01 (0001ms, 0854ms total)
T31F4 031:731 JLINK_ReadMemU32(0x400E0744, 0x0001 Items, ...) -- CPU_ReadMem(4 bytes @ 0x400E0744) - Data: 00 00 00 00  returns 0x01 (0001ms, 0855ms total)
T31F4 031:732 JLINK_WriteMem(0x400E0A04, 0x0004 Bytes, ...) - Data: 05 00 00 5A -- CPU_WriteMem(4 bytes @ 0x400E0A04)  returns 0x04 (0001ms, 0856ms total)
T31F4 031:733 JLINK_ReadMem (0x400E0A08, 0x0004 Bytes, ...) -- CPU_ReadMem(4 bytes @ 0x400E0A08) - Data: 00 00 00 00  returns 0x00 (0000ms, 0856ms total)
T31F4 031:735 JLINK_ReadMem (0x400E0A08, 0x0004 Bytes, ...) -- CPU_ReadMem(4 bytes @ 0x400E0A08) - Data: 00 00 00 00  returns 0x00 (0001ms, 0857ms total)
T31F4 031:740 JLINK_ReadMem (0x400E0A08, 0x0004 Bytes, ...) -- CPU_ReadMem(4 bytes @ 0x400E0A08) - Data: 00 00 00 00  returns 0x00 (0001ms, 0858ms total)
T31F4 031:759 JLINK_ReadMem (0x400E0A08, 0x0004 Bytes, ...) -- CPU_ReadMem(4 bytes @ 0x400E0A08) - Data: 00 00 00 00  returns 0x00 (0001ms, 0859ms total)
TB4F8 031:815 JLINK_IsHalted()  returns TRUE (0000ms, 0859ms total)
TB4F8 031:815 JLINK_GetMOEs(...) -- CPU_ReadMem(4 bytes @ 0xE000ED30)  returns 0x01 (0051ms, 0910ms total)
T31F4 031:866 JLINK_ReadMem (0x400E0A08, 0x0004 Bytes, ...) -- CPU_ReadMem(4 bytes @ 0x400E0A08) - Data: 00 00 00 00  returns 0x00 (0001ms, 0911ms total)
TB4F8 031:870 JLINK_ReadReg(R15 (PC))  returns 0x00400D14 (0001ms, 0912ms total)
TB4F8 032:074 JLINK_IsHalted()  returns TRUE (0000ms, 0912ms total)
T31F4 032:134 JLINK_ReadMem (0x400E0A08, 0x0004 Bytes, ...) -- CPU_ReadMem(4 bytes @ 0x400E0A08) - Data: 00 00 00 00  returns 0x00 (0004ms, 0916ms total)
TB4F8 032:278 JLINK_IsHalted()  returns TRUE (0017ms, 0933ms total)
TB4F8 032:496 JLINK_IsHalted()  returns TRUE (0000ms, 0916ms total)
TB4F8 032:697 JLINK_IsHalted()  returns TRUE (0000ms, 0916ms total)
TB4F8 032:897 JLINK_IsHalted()  returns TRUE (0000ms, 0916ms total)
TB4F8 033:100 JLINK_IsHalted()  returns TRUE (0000ms, 0916ms total)
T31F4 033:138 JLINK_ReadMem (0x400E0A08, 0x0004 Bytes, ...) -- CPU_ReadMem(4 bytes @ 0x400E0A08) - Data: 00 00 00 00  returns 0x00 (0001ms, 0917ms total)
T31F4 033:139 JLINK_ReadMem (0x400E0A08, 0x0004 Bytes, ...) -- CPU_ReadMem(4 bytes @ 0x400E0A08) - Data: 00 00 00 00  returns 0x00 (0001ms, 0918ms total)
T31F4 033:142 JLINK_ReadMem (0x400E0A08, 0x0004 Bytes, ...) -- CPU_ReadMem(4 bytes @ 0x400E0A08) - Data: 00 00 00 00  returns 0x00 (0000ms, 0918ms total)
T31F4 033:147 JLINK_ReadMem (0x400E0A08, 0x0004 Bytes, ...) -- CPU_ReadMem(4 bytes @ 0x400E0A08) - Data: 00 00 00 00  returns 0x00 (0000ms, 0918ms total)
T31F4 033:164 JLINK_ReadMem (0x400E0A08, 0x0004 Bytes, ...) -- CPU_ReadMem(4 bytes @ 0x400E0A08) - Data: 00 00 00 00  returns 0x00 (0000ms, 0918ms total)
T31F4 033:228 JLINK_ReadMem (0x400E0A08, 0x0004 Bytes, ...) -- CPU_ReadMem(4 bytes @ 0x400E0A08) - Data: 00 00 00 00  returns 0x00 (0000ms, 0918ms total)
TB4F8 033:300 JLINK_IsHalted()  returns TRUE (0000ms, 0918ms total)
T31F4 033:486 JLINK_ReadMem (0x400E0A08, 0x0004 Bytes, ...) -- CPU_ReadMem(4 bytes @ 0x400E0A08) - Data: 00 00 00 00  returns 0x00 (0000ms, 0918ms total)
TB4F8 033:501 JLINK_IsHalted()  returns TRUE (0000ms, 0918ms total)
TB4F8 033:702 JLINK_IsHalted()  returns TRUE (0000ms, 0918ms total)
TB4F8 033:903 JLINK_IsHalted()  returns TRUE (0000ms, 0918ms total)
TB4F8 034:104 JLINK_IsHalted()  returns TRUE (0000ms, 0918ms total)
TB4F8 034:304 JLINK_IsHalted()  returns TRUE (0000ms, 0918ms total)
T31F4 034:486 JLINK_ReadMem (0x400E0A08, 0x0004 Bytes, ...) -- CPU_ReadMem(4 bytes @ 0x400E0A08) - Data: 00 00 00 00  returns 0x00 (0001ms, 0919ms total)
T31F4 034:487 JLINK_ReadMem (0x400E0A08, 0x0004 Bytes, ...) -- CPU_ReadMem(4 bytes @ 0x400E0A08) - Data: 00 00 00 00  returns 0x00 (0001ms, 0920ms total)
T31F4 034:489 JLINK_ReadMem (0x400E0A08, 0x0004 Bytes, ...) -- CPU_ReadMem(4 bytes @ 0x400E0A08) - Data: 00 00 00 00  returns 0x00 (0001ms, 0921ms total)
T31F4 034:494 JLINK_ReadMem (0x400E0A08, 0x0004 Bytes, ...) -- CPU_ReadMem(4 bytes @ 0x400E0A08) - Data: 00 00 00 00  returns 0x00 (0000ms, 0921ms total)
TB4F8 034:504 JLINK_IsHalted()  returns TRUE (0000ms, 0921ms total)
T31F4 034:510 JLINK_ReadMem (0x400E0A08, 0x0004 Bytes, ...) -- CPU_ReadMem(4 bytes @ 0x400E0A08) - Data: 00 00 00 00  returns 0x00 (0001ms, 0922ms total)
T31F4 034:575 JLINK_ReadMem (0x400E0A08, 0x0004 Bytes, ...) -- CPU_ReadMem(4 bytes @ 0x400E0A08) - Data: 00 00 00 00  returns 0x00 (0000ms, 0922ms total)
TB4F8 034:705 JLINK_IsHalted()  returns TRUE (0000ms, 0922ms total)
T31F4 034:831 JLINK_ReadMem (0x400E0A08, 0x0004 Bytes, ...) -- CPU_ReadMem(4 bytes @ 0x400E0A08) - Data: 00 00 00 00  returns 0x00 (0000ms, 0922ms total)
TB4F8 034:907 JLINK_IsHalted()  returns TRUE (0000ms, 0922ms total)
TB4F8 035:107 JLINK_IsHalted()  returns TRUE (0000ms, 0922ms total)
TB4F8 035:307 JLINK_IsHalted()  returns TRUE (0000ms, 0922ms total)
TB4F8 035:509 JLINK_IsHalted()  returns TRUE (0000ms, 0922ms total)
TB4F8 035:710 JLINK_IsHalted()  returns TRUE (0000ms, 0922ms total)
T31F4 035:832 JLINK_ReadMem (0x400E0A08, 0x0004 Bytes, ...) -- CPU_ReadMem(4 bytes @ 0x400E0A08) - Data: 00 00 00 00  returns 0x00 (0000ms, 0922ms total)
T31F4 035:833 JLINK_ReadMem (0x400E0A08, 0x0004 Bytes, ...) -- CPU_ReadMem(4 bytes @ 0x400E0A08) - Data: 00 00 00 00  returns 0x00 (0000ms, 0922ms total)
T31F4 035:834 JLINK_ReadMem (0x400E0A08, 0x0004 Bytes, ...) -- CPU_ReadMem(4 bytes @ 0x400E0A08) - Data: 00 00 00 00  returns 0x00 (0000ms, 0922ms total)
T31F4 035:840 JLINK_ReadMem (0x400E0A08, 0x0004 Bytes, ...) -- CPU_ReadMem(4 bytes @ 0x400E0A08) - Data: 00 00 00 00  returns 0x00 (0001ms, 0923ms total)
T31F4 035:858 JLINK_ReadMem (0x400E0A08, 0x0004 Bytes, ...) -- CPU_ReadMem(4 bytes @ 0x400E0A08) - Data: 01 00 00 00  returns 0x00 (0000ms, 0923ms total)
TB4F8 035:911 JLINK_IsHalted()  returns TRUE (0000ms, 0923ms total)
T31F4 035:913 JLINK_ResetPullsRESET(ON) (0000ms, 0923ms total)
T31F4 035:913 JLINK_ResetNoHalt() >0x10B TIF>Found SW-DP with ID 0x2BA01477 >0x0D TIF> >0x28 TIF> >0x0D TIF> >0x28 TIF> >0x0D TIF> >0x28 TIF> >0x0D TIF> >0x28 TIF> >0x0D TIF> >0x21 TIF> >0x0D TIF> >0x28 TIF>AP map detection skipped. User manually configured AP map.AP[0]: AHB-AP (IDR: Not set) >0x42 TIF> >0x28 TIF> >0x0D TIF> >0x21 TIF> >0x0D TIF> >0x21 TIF> >0x42 TIF> >0x28 TIF> >0x0D TIF> >0x28 TIF> >0x0D TIF> >0x28 TIF> >0x0D TIF> >0x21 TIF> >0x0D TIF> >0x21 TIF>AP[0]: Core found
AP[0]: AHB-AP ROM base: 0xE00FF000 >0x0D TIF> >0x28 TIF> >0x0D TIF> >0x28 TIF> >0x0D TIF> >0x28 TIF> >0x0D TIF> >0x21 TIF> >0x0D TIF> >0x21 TIF>CPUID register: 0x410FC241. Implementer code: 0x41 (ARM)Found Cortex-M4 r0p1, Little endian. -- CPU_ReadMem(4 bytes @ 0xE000EDF0) -- CPU_ReadMem(4 bytes @ 0xE0002000) -- CPU_ReadMem(4 bytes @ 0xE000EDFC) -- CPU_ReadMem(4 bytes @ 0xE0001000) -- CPU_ReadMem(4 bytes @ 0xE000ED88) -- CPU_WriteMem(4 bytes @ 0xE000ED88) -- CPU_ReadMem(4 bytes @ 0xE000ED88)
 -- CPU_WriteMem(4 bytes @ 0xE000ED88)CoreSight components:ROMTbl[0] @ E00FF000 -- CPU_ReadMem(16 bytes @ 0xE00FF000) -- CPU_ReadMem(16 bytes @ 0xE000EFF0) -- CPU_ReadMem(16 bytes @ 0xE000EFE0)ROMTbl[0][0]: E000E000, CID: B105E00D, PID: 000BB000 SCS -- CPU_WriteMem(4 bytes @ 0xE0001000) -- CPU_ReadMem(16 bytes @ 0xE0001FF0) -- CPU_ReadMem(16 bytes @ 0xE0001FE0)ROMTbl[0][1]: E0001000, CID: B105E00D, PID: 003BB002 DWT -- CPU_ReadMem(16 bytes @ 0xE0002FF0) -- CPU_ReadMem(16 bytes @ 0xE0002FE0)
ROMTbl[0][2]: E0002000, CID: B105E00D, PID: 002BB003 FPB -- CPU_ReadMem(16 bytes @ 0xE0000FF0) -- CPU_ReadMem(16 bytes @ 0xE0000FE0)ROMTbl[0][3]: E0000000, CID: B105E00D, PID: 003BB001 ITM -- CPU_ReadMem(16 bytes @ 0xE00FF010) -- CPU_ReadMem(16 bytes @ 0xE0040FF0) -- CPU_ReadMem(16 bytes @ 0xE0040FE0)ROMTbl[0][4]: E0040000, CID: B105900D, PID: 000BB9A1 TPIU
                JLINK_Reset() -- CPU_ReadMem(16 bytes @ 0x20000000) -- CPU_WriteMem(16 bytes @ 0x20000000) -- CPU_ReadMem(4 bytes @ 0xE000EDFC) -- CPU_WriteMem(4 bytes @ 0xE000EDFC) -- CPU_ReadMem(4 bytes @ 0xE0001000) -- CPU_WriteMem(4 bytes @ 0xE0001004) -- CPU_WriteMem(4 bytes @ 0xE000EDFC) -- CPU_WriteMem(16 bytes @ 0x20000000) -- CPU_WriteMem(4 bytes @ 0xE0002000) -- CPU_ReadMem(4 bytes @ 0xE000EDFC) -- CPU_ReadMem(4 bytes @ 0xE0001000) (0026ms, 0026ms total)
                JLINK_Go() -- CPU_ReadMem(4 bytes @ 0xE0001000) -- CPU_WriteMem(4 bytes @ 0xE0001004) (0002ms, 0028ms total)
               (0166ms, 1089ms total)
T31F4 036:080 JLINK_ExecCommand("ProjectFile = D:\Git\ESD2_NetworkedProgrammer\NetworkedProgrammer\NetworkedProgrammer\jlink.config", ...).   returns 0x00 (0003ms, 1092ms total)
T31F4 036:105 JLINK_ExecCommand("Device = AT91SAM4S8B", ...).   returns 0x00 (0005ms, 1097ms total)
T31F4 036:110 JLINK_TIF_Select(JLINKARM_TIF_SWD)  returns 0x00 (0000ms, 1097ms total)
T31F4 036:110 JLINK_SetSpeed(4000) (0000ms, 1097ms total)
T31F4 036:110 JLINK_ResetPullsRESET(OFF) (0000ms, 1097ms total)
T31F4 036:110 JLINK_Connect() >0x10B TIF>Found SW-DP with ID 0x2BA01477 >0x0D TIF> >0x28 TIF> >0x0D TIF> >0x28 TIF> >0x0D TIF> >0x28 TIF> >0x0D TIF> >0x28 TIF> >0x0D TIF> >0x21 TIF> >0x0D TIF> >0x28 TIF>AP map detection skipped. User manually configured AP map.AP[0]: AHB-AP (IDR: Not set) >0x42 TIF> >0x28 TIF> >0x0D TIF> >0x21 TIF> >0x0D TIF> >0x21 TIF> >0x42 TIF> >0x28 TIF> >0x0D TIF> >0x28 TIF> >0x0D TIF> >0x28 TIF> >0x0D TIF> >0x0D TIF> >0x21 TIF> >0x0D TIF> >0x21 TIF>AP[0]: Core found
AP[0]: AHB-AP ROM base: 0xE00FF000 >0x0D TIF> >0x28 TIF> >0x0D TIF> >0x28 TIF> >0x0D TIF> >0x28 TIF> >0x0D TIF> >0x0D TIF> >0x21 TIF> >0x0D TIF> >0x21 TIF>CPUID register: 0x410FC241. Implementer code: 0x41 (ARM)Found Cortex-M4 r0p1, Little endian. -- CPU_ReadMem(4 bytes @ 0xE000EDF0) -- CPU_ReadMem(4 bytes @ 0xE0002000) -- CPU_ReadMem(4 bytes @ 0xE000EDFC) -- CPU_ReadMem(4 bytes @ 0xE0001000) -- CPU_WriteMem(4 bytes @ 0xE0001000) -- CPU_ReadMem(4 bytes @ 0xE000ED88) -- CPU_WriteMem(4 bytes @ 0xE000ED88)
 -- CPU_ReadMem(4 bytes @ 0xE000ED88) -- CPU_WriteMem(4 bytes @ 0xE000ED88)CoreSight components:ROMTbl[0] @ E00FF000 -- CPU_ReadMem(16 bytes @ 0xE00FF000) -- CPU_ReadMem(16 bytes @ 0xE000EFF0) -- CPU_ReadMem(16 bytes @ 0xE000EFE0)ROMTbl[0][0]: E000E000, CID: B105E00D, PID: 000BB000 SCS -- CPU_ReadMem(16 bytes @ 0xE0001FF0) -- CPU_ReadMem(16 bytes @ 0xE0001FE0)ROMTbl[0][1]: E0001000, CID: B105E00D, PID: 003BB002 DWT -- CPU_ReadMem(16 bytes @ 0xE0002FF0) -- CPU_ReadMem(16 bytes @ 0xE0002FE0)
ROMTbl[0][2]: E0002000, CID: B105E00D, PID: 002BB003 FPB -- CPU_ReadMem(16 bytes @ 0xE0000FF0) -- CPU_ReadMem(16 bytes @ 0xE0000FE0)ROMTbl[0][3]: E0000000, CID: B105E00D, PID: 003BB001 ITM -- CPU_ReadMem(16 bytes @ 0xE00FF010) -- CPU_ReadMem(16 bytes @ 0xE0040FF0) -- CPU_ReadMem(16 bytes @ 0xE0040FE0)ROMTbl[0][4]: E0040000, CID: B105900D, PID: 000BB9A1 TPIU  returns 0x00 (0150ms, 1247ms total)
T31F4 036:260 JLINK_Halt()  returns 0x00 (0004ms, 1251ms total)
T31F4 036:264 JLINK_WriteMem(0x400E0A04, 0x0004 Bytes, ...) - Data: 0B 01 00 5A -- CPU_WriteMem(4 bytes @ 0x400E0A04)  returns 0x04 (0001ms, 1252ms total)
T31F4 036:265 JLINK_ReadMem (0x400E0A08, 0x0004 Bytes, ...) -- CPU_ReadMem(4 bytes @ 0x400E0A08) - Data: 01 00 00 00  returns 0x00 (0001ms, 1253ms total)
T31F4 036:266 JLINK_SetResetType(JLINKARM_CM3_RESET_TYPE_NORMAL)  returns JLINKARM_CM3_RESET_TYPE_NORMAL (0000ms, 1253ms total)
T31F4 036:266 JLINK_Reset() -- CPU_ReadMem(16 bytes @ 0x20000000) -- CPU_WriteMem(16 bytes @ 0x20000000) -- CPU_ReadMem(4 bytes @ 0xE000EDFC) -- CPU_WriteMem(4 bytes @ 0xE000EDFC) -- CPU_ReadMem(4 bytes @ 0xE0001000) -- CPU_WriteMem(4 bytes @ 0xE000EDFC) -- CPU_WriteMem(16 bytes @ 0x20000000) -- CPU_WriteMem(4 bytes @ 0xE0002000) -- CPU_ReadMem(4 bytes @ 0xE000EDFC) -- CPU_ReadMem(4 bytes @ 0xE0001000) (0026ms, 1279ms total)
T31F4 036:297 JLINK_JTAG_GetDeviceID(DeviceIndex = 0)  returns 0x00 (0000ms, 1279ms total)
T31F4 036:297 JLINK_ReadMemU32(0x400E0740, 0x0001 Items, ...) -- CPU_ReadMem(4 bytes @ 0x400E0740) - Data: E0 0A 9C 28  returns 0x01 (0001ms, 1280ms total)
T31F4 036:298 JLINK_ReadMemU32(0x400E0744, 0x0001 Items, ...) -- CPU_ReadMem(4 bytes @ 0x400E0744) - Data: 00 00 00 00  returns 0x01 (0001ms, 1281ms total)
T31F4 036:321 JLINK_BeginDownload(Flags = 0x00) (0001ms, 1282ms total)
T31F4 036:322 JLINK_WriteMem(0x00400000, 0x1940 Bytes, ...) - Data: 40 39 00 20 15 0D 40 00 11 0D 40 00 11 0D 40 00 ...  returns 0x1940 (0001ms, 1283ms total)
T31F4 036:324 JLINK_WriteMem(0x00401940, 0x043C Bytes, ...) - Data: BF F3 5F 8F 01 38 FB D1 70 47 00 00 00 09 3D 00 ...  returns 0x43C (0000ms, 1283ms total)
TA6E0 036:328 JLINK_IsHalted()  returns TRUE (0000ms, 1283ms total)
TA6E0 036:328 JLINK_GetMOEs(...) -- CPU_ReadMem(4 bytes @ 0xE000ED30)  returns 0x01 (0002ms, 1285ms total)
TA6E0 036:330 JLINK_ReadReg(R15 (PC)) -- CPU_ReadMem(4 bytes @ 0xE000ED90) -- CPU_ReadMem(4 bytes @ 0xE000ED94) -- -------------------------------------- -- Start of determining dirty areas in flash cache -- End of determining dirty areas -- Start of preparing flash programming -- Calculating RAM usage -- RAM usage = 2900 Bytes -- Preserving CPU registers -- Preparing memory -- Preparing target -- Downloading RAMCode -- Checking target RAM -- Preparing RAMCode -- End of preparing flash programming
 -- CPU is running at 90000 kHz. -- Start of comparing flash -- CRC check was estimated as fastest method -- Comparing range 0x400000 - 0x401DFF (15 Sectors, 7 KB), using multi-block CRC calculation -- CRC does not match for sectors 0-14 -- End of comparing flash -- Start of erasing sectors -- End of erasing sectors -- Start of flash programming -- Programming range 0x00400000 - 0x00401DFF (015 Sectors, 7 KB) -- End of flash programming -- 0x400000 - 0x401DFF (015 Sectors, 7 KB)
 -- Start of verifying flash -- Checksum calculation was estimated as fastest method -- Checksum is not supported by this flash bank. Switched to CRC method. -- End of verifying flash -- Start of restoring -- Restoring RAMCode -- Restore target -- Restore memory -- Restoring CPU registers -- End of restoring -- Bank 0 @ 0x00400000: 1 range affected (7680 bytes) -- Total time needed: 0.426s (Prepare: 0.293s, Compare: 0.005s, Erase: 0.000s, Program: 0.068s, Verify: 0.001s, Restore: 0.057s)
  returns 0xFFFFFFFE (0451ms, 1736ms total)
T31F4 036:781 JLINK_EndDownload()  returns 0x00 (0000ms, 1736ms total)
TA6E0 036:981 JLINK_IsHalted()  returns TRUE (0000ms, 1736ms total)
TA6E0 037:183 JLINK_IsHalted()  returns TRUE (0000ms, 1736ms total)
TA6E0 037:395 JLINK_IsHalted()  returns TRUE (0000ms, 1736ms total)
TB628 037:423 JLINK_Halt()  returns 0x00 (0000ms, 1736ms total)
TB628 037:423 JLINK_ReadReg(R15 (PC))  returns 0xFFFFFFFE (0000ms, 1736ms total)
TB628 037:423 JLINK_ReadReg(R13 (SP))  returns 0xFFFFFFFC (0000ms, 1736ms total)
TB628 037:496 JLINK_ReadReg(R0)  returns 0x400E1400 (0000ms, 1737ms total)
TB628 037:496 JLINK_ReadReg(R1)  returns 0x40C00000 (0000ms, 1737ms total)
TB628 037:496 JLINK_ReadReg(R2)  returns 0xA5000005 (0000ms, 1737ms total)
TB628 037:497 JLINK_ReadReg(R3)  returns 0x00000000 (0000ms, 1737ms total)
TB628 037:497 JLINK_ReadReg(R4)  returns 0x00000003 (0000ms, 1737ms total)
TB628 037:497 JLINK_ReadReg(R5)  returns 0x00000000 (0000ms, 1737ms total)
TB628 037:497 JLINK_ReadReg(R6)  returns 0x20003915 (0000ms, 1737ms total)
TB628 037:497 JLINK_ReadReg(R7)  returns 0x00400FF9 (0000ms, 1737ms total)
TB628 037:497 JLINK_ReadReg(R8)  returns 0x200004F0 (0000ms, 1737ms total)
TB628 037:497 JLINK_ReadReg(R9)  returns 0x5822E641 (0000ms, 1737ms total)
TB628 037:497 JLINK_ReadReg(R10)  returns 0x84191629 (0000ms, 1737ms total)
TB628 037:497 JLINK_ReadReg(R11)  returns 0x809C8072 (0000ms, 1737ms total)
TB628 037:497 JLINK_ReadReg(R12)  returns 0x200038B1 (0000ms, 1737ms total)
TB628 037:497 JLINK_ReadReg(R13 (SP))  returns 0xFFFFFFFC (0000ms, 1737ms total)
TB628 037:497 JLINK_ReadReg(R14)  returns 0xFFFFFFFF (0000ms, 1737ms total)
TB628 037:497 JLINK_ReadReg(R15 (PC))  returns 0xFFFFFFFE (0000ms, 1737ms total)
TB628 037:497 JLINK_ReadReg(XPSR)  returns 0x01000000 (0000ms, 1737ms total)
TB628 037:497 JLINK_ReadReg(MSP)  returns 0xFFFFFFFC (0001ms, 1738ms total)
TB628 037:498 JLINK_ReadReg(PSP)  returns 0x7989C000 (0000ms, 1738ms total)
TB628 037:498 JLINK_ReadReg(PRIMASK)  returns 0x00000000 (0000ms, 1738ms total)
TB628 037:498 JLINK_ReadReg(BASEPRI)  returns 0x00000000 (0000ms, 1738ms total)
TB628 037:498 JLINK_ReadReg(FAULTMASK)  returns 0x00000000 (0000ms, 1738ms total)
TB628 037:498 JLINK_ReadReg(CONTROL)  returns 0x00000000 (0000ms, 1738ms total)
TB628 037:597 JLINK_ReadMemHW(0x00400730, 0x0002 Bytes, ...) -- CPU_ReadMem(2 bytes @ 0x00400730) - Data: 03 21  returns 0x00 (0001ms, 1739ms total)
TA6E0 037:598 JLINK_IsHalted()  returns TRUE (0000ms, 1739ms total)
TB628 037:600 JLINK_ReadMemHW(0x004007F6, 0x0002 Bytes, ...) -- CPU_ReadMem(2 bytes @ 0x004007F6) - Data: 01 20  returns 0x00 (0001ms, 1740ms total)
T31F4 037:631 JLINK_GetNumBPUnits(Type = 0xFFFFFF02)  returns 0x06 (0000ms, 1740ms total)
T31F4 037:631 JLINK_SetBPEx(Addr = 0x004007F6, Type = 0xFFFFFFF2)  returns 0x00000001 (0000ms, 1740ms total)
T31F4 037:631 JLINK_GetBPInfo(BPHandle = 1)  returns 0x00 (0000ms, 1740ms total)
TB628 037:736 JLINK_ReadMemHW(0x00400730, 0x0002 Bytes, ...) -- CPU_ReadMem(2 bytes @ 0x00400730) - Data: 03 21  returns 0x00 (0001ms, 1741ms total)
TB628 037:737 JLINK_ReadMemHW(0x004007FA, 0x0002 Bytes, ...) -- CPU_ReadMem(2 bytes @ 0x004007FA) - Data: 00 20  returns 0x00 (0001ms, 1742ms total)
T31F4 037:741 JLINK_SetBPEx(Addr = 0x004007FA, Type = 0xFFFFFFF2)  returns 0x00000002 (0000ms, 1742ms total)
T31F4 037:741 JLINK_GetBPInfo(BPHandle = 2)  returns 0x00 (0000ms, 1742ms total)
TB628 037:758 JLINK_ReadMemHW(0x00400730, 0x0002 Bytes, ...) -- CPU_ReadMem(2 bytes @ 0x00400730) - Data: 03 21  returns 0x00 (0001ms, 1743ms total)
TB628 037:759 JLINK_ReadMemHW(0x00400730, 0x0002 Bytes, ...) -- CPU_ReadMem(2 bytes @ 0x00400730) - Data: 03 21  returns 0x00 (0001ms, 1744ms total)
T31F4 037:763 JLINK_SetBPEx(Addr = 0x00400730, Type = 0xFFFFFFF2)  returns 0x00000003 (0000ms, 1744ms total)
T31F4 037:763 JLINK_GetBPInfo(BPHandle = 3)  returns 0x00 (0000ms, 1744ms total)
TB628 037:778 JLINK_SetResetType(JLINKARM_CM3_RESET_TYPE_NORMAL)  returns JLINKARM_CM3_RESET_TYPE_NORMAL (0000ms, 1744ms total)
TB628 037:778 JLINK_Reset() -- CPU_ReadMem(16 bytes @ 0x20000000) -- CPU_WriteMem(16 bytes @ 0x20000000) -- CPU_ReadMem(4 bytes @ 0xE000EDFC) -- CPU_WriteMem(4 bytes @ 0xE000EDFC) -- CPU_ReadMem(4 bytes @ 0xE0001000) -- CPU_WriteMem(4 bytes @ 0xE000EDFC) -- CPU_WriteMem(16 bytes @ 0x20000000) -- CPU_WriteMem(4 bytes @ 0xE0002000) -- CPU_ReadMem(4 bytes @ 0xE000EDFC) -- CPU_ReadMem(4 bytes @ 0xE0001000) (0026ms, 1770ms total)
TA6E0 037:804 JLINK_IsHalted()  returns TRUE (0000ms, 1770ms total)
TA6E0 037:804 JLINK_GetMOEs(...) -- CPU_ReadMem(4 bytes @ 0xE000ED30)  returns 0x01 (0001ms, 1771ms total)
TA6E0 037:805 JLINK_ReadReg(R15 (PC))  returns 0x00400D14 (0000ms, 1771ms total)
TB628 037:814 JLINK_ReadReg(R15 (PC))  returns 0x00400D14 (0000ms, 1771ms total)
TB628 037:814 JLINK_ReadReg(R13 (SP))  returns 0x20003940 (0000ms, 1771ms total)
TB628 037:850 JLINK_ReadMemHW(0x00400D14, 0x0004 Bytes, ...) -- CPU_ReadMem(4 bytes @ 0x00400D14) - Data: 08 B5 21 4B  returns 0x00 (0001ms, 1772ms total)
TB628 037:949 JLINK_ReadMemHW(0x00400F44, 0x0001 Bytes, ...) -- CPU_ReadMem(1 bytes @ 0x00400F44) - Data: 08  returns 0x00 (0000ms, 1772ms total)
TA6E0 038:017 JLINK_IsHalted()  returns TRUE (0000ms, 1772ms total)
TB628 038:042 JLINK_ReadReg(R15 (PC))  returns 0x00400D14 (0000ms, 1772ms total)
TB628 038:042 JLINK_SetBPEx(Addr = 0x00400F44, Type = 0xFFFFFFF2)  returns 0x00000004 (0001ms, 1773ms total)
TB628 038:043 JLINK_GetBPInfo(BPHandle = 4)  returns 0x00 (0000ms, 1773ms total)
TB628 038:043 JLINK_Go() -- CPU_WriteMem(4 bytes @ 0xE0002000) -- CPU_WriteMem(4 bytes @ 0xE0002000) -- CPU_WriteMem(4 bytes @ 0xE0002000) -- CPU_WriteMem(4 bytes @ 0xE0002000) -- CPU_ReadMem(4 bytes @ 0xE0001000) -- CPU_WriteMem(4 bytes @ 0xE000ED30) -- CPU_WriteMem(4 bytes @ 0xE0002008) -- CPU_WriteMem(4 bytes @ 0xE000200C) -- CPU_WriteMem(4 bytes @ 0xE0002010) -- CPU_WriteMem(4 bytes @ 0xE0002014) -- CPU_WriteMem(4 bytes @ 0xE0002018) -- CPU_WriteMem(4 bytes @ 0xE000201C)
 -- CPU_WriteMem(4 bytes @ 0xE0001004) (0007ms, 1780ms total)
TA6E0 038:050 JLINK_IsHalted()  returns FALSE (0001ms, 1781ms total)
TA6E0 038:072 JLINK_IsHalted()  returns TRUE (0003ms, 1783ms total)
TA6E0 038:075 JLINK_GetMOEs(...) -- CPU_ReadMem(4 bytes @ 0xE000ED30)  returns 0x01 (0001ms, 1781ms total)
TA6E0 038:076 JLINK_ReadReg(R15 (PC))  returns 0x00400F44 (0000ms, 1781ms total)
TB628 038:080 JLINK_ReadReg(R15 (PC))  returns 0x00400F44 (0000ms, 1781ms total)
TB628 038:080 JLINK_ReadReg(R13 (SP))  returns 0x20003938 (0000ms, 1781ms total)
TB628 038:081 JLINK_ReadMemHW(0x00400F44, 0x0004 Bytes, ...) -- CPU_ReadMem(4 bytes @ 0x00400F44) - Data: 08 B5 0C 4B  returns 0x00 (0000ms, 1781ms total)
TA6E0 038:278 JLINK_IsHalted()  returns TRUE (0000ms, 1781ms total)
TA6E0 038:478 JLINK_IsHalted()  returns TRUE (0000ms, 1781ms total)
TA6E0 038:678 JLINK_IsHalted()  returns TRUE (0001ms, 1782ms total)
TA6E0 038:879 JLINK_IsHalted()  returns TRUE (0000ms, 1781ms total)
T31F4 039:025 JLINK_ReadMem (0x40000000, 0x0140 Bytes, ...) -- CPU_ReadMem(320 bytes @ 0x40000000) - Data: 00 00 00 00 00 00 00 00 00 00 00 00 00 00 00 00 ...  returns 0x00 (0003ms, 1784ms total)
T31F4 039:032 JLINK_ReadMem (0x40000000, 0x0140 Bytes, ...) -- CPU_ReadMem(320 bytes @ 0x40000000) - Data: 00 00 00 00 00 00 00 00 00 00 00 00 00 00 00 00 ...  returns 0x00 (0003ms, 1787ms total)
TA6E0 039:080 JLINK_IsHalted()  returns TRUE (0000ms, 1787ms total)
T31F4 039:171 JLINK_ReadMem (0x40000140, 0x0028 Bytes, ...) -- CPU_ReadMem(40 bytes @ 0x40000140) - Data: 00 00 00 00 00 00 00 00 00 00 00 00 00 00 00 00 ...  returns 0x00 (0001ms, 1788ms total)
TA6E0 039:281 JLINK_IsHalted()  returns TRUE (0000ms, 1788ms total)
T31F4 039:331 JLINK_ReadMem (0x40000000, 0x0168 Bytes, ...) -- CPU_ReadMem(360 bytes @ 0x40000000) - Data: 00 00 00 00 00 00 00 00 00 00 00 00 00 00 00 00 ...  returns 0x00 (0004ms, 1792ms total)
T31F4 039:339 JLINK_ReadMem (0x40000000, 0x0168 Bytes, ...) -- CPU_ReadMem(360 bytes @ 0x40000000) - Data: 00 00 00 00 00 00 00 00 00 00 00 00 00 00 00 00 ...  returns 0x00 (0003ms, 1795ms total)
TA6E0 039:482 JLINK_IsHalted()  returns TRUE (0000ms, 1795ms total)
TA6E0 039:684 JLINK_IsHalted()  returns TRUE (0000ms, 1795ms total)
TB628 039:734 JLINK_ReadMemHW(0x00400F44, 0x0001 Bytes, ...) -- CPU_ReadMem(1 bytes @ 0x00400F44) - Data: 08  returns 0x00 (0001ms, 1796ms total)
TA6E0 039:885 JLINK_IsHalted()  returns TRUE (0000ms, 1796ms total)
TA6E0 040:086 JLINK_IsHalted()  returns TRUE (0000ms, 1796ms total)
TA6E0 040:286 JLINK_IsHalted()  returns TRUE (0000ms, 1796ms total)
TA6E0 040:486 JLINK_IsHalted()  returns TRUE (0000ms, 1796ms total)
TA6E0 040:687 JLINK_IsHalted()  returns TRUE (0000ms, 1796ms total)
TA6E0 040:887 JLINK_IsHalted()  returns TRUE (0000ms, 1796ms total)
TA6E0 041:087 JLINK_IsHalted()  returns TRUE (0000ms, 1796ms total)
TA6E0 041:289 JLINK_IsHalted()  returns TRUE (0000ms, 1796ms total)
TA6E0 041:490 JLINK_IsHalted()  returns TRUE (0000ms, 1796ms total)
TA6E0 041:691 JLINK_IsHalted()  returns TRUE (0000ms, 1796ms total)
TA6E0 041:893 JLINK_IsHalted()  returns TRUE (0000ms, 1796ms total)
TA6E0 042:095 JLINK_IsHalted()  returns TRUE (0000ms, 1796ms total)
TA6E0 042:296 JLINK_IsHalted()  returns TRUE (0000ms, 1796ms total)
TB628 042:441 JLINK_WriteU32(0xE000EDFC, 0x01000000) -- CPU_WriteMem(4 bytes @ 0xE000EDFC)  returns 0x00 (0001ms, 1797ms total)
TB628 042:442 JLINK_ReadMem (0xE0001000, 0x0004 Bytes, ...) -- CPU_ReadMem(4 bytes @ 0xE0001000) - Data: 01 00 00 40  returns 0x00 (0001ms, 1798ms total)
TB628 042:443 JLINK_WriteU32(0xE0001000, 0x40000001)  returns 0x00 (0000ms, 1798ms total)
TB628 042:443 JLINK_WriteU32(0xE0001028, 0x00000100)  returns 0x00 (0000ms, 1798ms total)
TB628 042:443 JLINK_ReadMem (0xE0001028, 0x0004 Bytes, ...) -- CPU_WriteMem(4 bytes @ 0xE0001028) -- CPU_ReadMem(4 bytes @ 0xE0001028) - Data: 00 00 00 00  returns 0x00 (0001ms, 1799ms total)
TB628 042:444 JLINK_WriteU32(0xE0001024, 0x0000001F)  returns 0x00 (0000ms, 1799ms total)
TB628 042:444 JLINK_ReadMem (0xE0001024, 0x0004 Bytes, ...) -- CPU_WriteMem(4 bytes @ 0xE0001024) -- CPU_ReadMem(4 bytes @ 0xE0001024) - Data: 0F 00 00 00  returns 0x00 (0002ms, 1801ms total)
TB628 042:446 JLINK_WriteU32(0xE0001038, 0x00000100)  returns 0x00 (0000ms, 1801ms total)
TB628 042:446 JLINK_ReadMem (0xE0001038, 0x0004 Bytes, ...) -- CPU_WriteMem(4 bytes @ 0xE0001038) -- CPU_ReadMem(4 bytes @ 0xE0001038) - Data: 00 03 00 00  returns 0x00 (0001ms, 1802ms total)
TB628 042:447 JLINK_WriteU32(0xE0001034, 0x0000001F)  returns 0x00 (0000ms, 1802ms total)
TB628 042:447 JLINK_ReadMem (0xE0001034, 0x0004 Bytes, ...) -- CPU_WriteMem(4 bytes @ 0xE0001034) -- CPU_ReadMem(4 bytes @ 0xE0001034) - Data: 0F 00 00 00  returns 0x00 (0001ms, 1803ms total)
TB628 042:448 JLINK_WriteU32(0xE0001048, 0x00000100)  returns 0x00 (0000ms, 1803ms total)
TB628 042:448 JLINK_ReadMem (0xE0001048, 0x0004 Bytes, ...) -- CPU_WriteMem(4 bytes @ 0xE0001048) -- CPU_ReadMem(4 bytes @ 0xE0001048) - Data: 00 00 00 00  returns 0x00 (0001ms, 1804ms total)
TB628 042:449 JLINK_WriteU32(0xE0001044, 0x0000001F)  returns 0x00 (0001ms, 1805ms total)
TB628 042:450 JLINK_ReadMem (0xE0001044, 0x0004 Bytes, ...) -- CPU_WriteMem(4 bytes @ 0xE0001044) -- CPU_ReadMem(4 bytes @ 0xE0001044) - Data: 0F 00 00 00  returns 0x00 (0001ms, 1806ms total)
TB628 042:451 JLINK_WriteU32(0xE0001058, 0x00000100)  returns 0x00 (0000ms, 1806ms total)
TB628 042:451 JLINK_ReadMem (0xE0001058, 0x0004 Bytes, ...) -- CPU_WriteMem(4 bytes @ 0xE0001058) -- CPU_ReadMem(4 bytes @ 0xE0001058) - Data: 00 00 00 00  returns 0x00 (0001ms, 1807ms total)
TB628 042:452 JLINK_WriteU32(0xE0001054, 0x0000001F)  returns 0x00 (0000ms, 1807ms total)
TB628 042:453 JLINK_ReadMem (0xE0001054, 0x0004 Bytes, ...) -- CPU_WriteMem(4 bytes @ 0xE0001054) -- CPU_ReadMem(4 bytes @ 0xE0001054) - Data: 0F 00 00 00  returns 0x00 (0001ms, 1809ms total)
TB628 042:454 JLINK_WriteU32(0xE0001020, 0x00000000)  returns 0x00 (0000ms, 1809ms total)
TB628 042:454 JLINK_WriteU32(0xE0001024, 0x00000000)  returns 0x00 (0000ms, 1809ms total)
TB628 042:454 JLINK_WriteU32(0xE0001028, 0x00000000)  returns 0x00 (0000ms, 1809ms total)
TB628 042:454 JLINK_WriteU32(0xE0001030, 0x00000000)  returns 0x00 (0000ms, 1809ms total)
TB628 042:454 JLINK_WriteU32(0xE0001034, 0x00000000)  returns 0x00 (0000ms, 1809ms total)
TB628 042:454 JLINK_WriteU32(0xE0001038, 0x00000000)  returns 0x00 (0000ms, 1809ms total)
TB628 042:454 JLINK_WriteU32(0xE0001040, 0x00000000)  returns 0x00 (0000ms, 1809ms total)
TB628 042:454 JLINK_WriteU32(0xE0001044, 0x00000000)  returns 0x00 (0000ms, 1809ms total)
TB628 042:454 JLINK_WriteU32(0xE0001048, 0x00000000)  returns 0x00 (0000ms, 1809ms total)
TB628 042:454 JLINK_WriteU32(0xE0001050, 0x00000000)  returns 0x00 (0000ms, 1809ms total)
TB628 042:454 JLINK_WriteU32(0xE0001054, 0x00000000)  returns 0x00 (0000ms, 1809ms total)
TB628 042:454 JLINK_WriteU32(0xE0001058, 0x00000000)  returns 0x00 (0000ms, 1809ms total)
TB628 042:454 JLINK_GetBPInfo(BPHandle = 4)  returns 0x00 (0000ms, 1809ms total)
TB628 042:454 JLINK_ClrBPEx(BPHandle = 0x00000004)  returns 0x00 (0000ms, 1809ms total)
TB628 042:455 JLINK_ReadReg(R15 (PC))  returns 0x00400F44 (0000ms, 1810ms total)
TB628 042:455 JLINK_Step() -- Read from flash cache (2 bytes @ 0x00400F44) -- CPU_ReadMem(4 bytes @ 0xE000ED18) -- CPU_WriteMem(4 bytes @ 0xE000ED18) -- CPU_ReadMem(4 bytes @ 0xE000ED18) -- CPU_WriteMem(4 bytes @ 0xE000ED18) -- CPU_ReadMem(4 bytes @ 0xE0001004) -- CPU_WriteMem(8 bytes @ 0x20003930) -- Simulated  returns 0x00 (0004ms, 1814ms total)
TA6E0 042:459 JLINK_IsHalted()  returns TRUE (0000ms, 1814ms total)
TA6E0 042:459 JLINK_GetMOEs(...)  returns 0x01 (0000ms, 1814ms total)
TA6E0 042:459 JLINK_ReadReg(R15 (PC))  returns 0x00400F46 (0000ms, 1814ms total)
TB628 042:469 JLINK_ReadReg(R15 (PC))  returns 0x00400F46 (0000ms, 1814ms total)
TB628 042:469 JLINK_ReadReg(R13 (SP))  returns 0x20003930 (0000ms, 1814ms total)
TB628 042:470 JLINK_ReadMemHW(0x00400F46, 0x0004 Bytes, ...) -- CPU_ReadMem(4 bytes @ 0x00400F46) - Data: 0C 4B 98 47  returns 0x00 (0000ms, 1814ms total)
TA6E0 042:663 JLINK_IsHalted()  returns TRUE (0000ms, 1814ms total)
TA6E0 042:864 JLINK_IsHalted()  returns TRUE (0000ms, 1814ms total)
T31F4 043:004 JLINK_ReadMem (0x40000000, 0x0168 Bytes, ...) -- CPU_ReadMem(360 bytes @ 0x40000000) - Data: 00 00 00 00 00 00 00 00 00 00 00 00 00 00 00 00 ...  returns 0x00 (0003ms, 1817ms total)
T31F4 043:011 JLINK_ReadMem (0x40000000, 0x0168 Bytes, ...) -- CPU_ReadMem(360 bytes @ 0x40000000) - Data: 00 00 00 00 00 00 00 00 00 00 00 00 00 00 00 00 ...  returns 0x00 (0003ms, 1820ms total)
TA6E0 043:064 JLINK_IsHalted()  returns TRUE (0000ms, 1820ms total)
TA6E0 043:264 JLINK_IsHalted()  returns TRUE (0000ms, 1820ms total)
TB628 043:366 JLINK_ReadMemHW(0x00400828, 0x0001 Bytes, ...) -- CPU_ReadMem(1 bytes @ 0x00400828) - Data: 10  returns 0x00 (0001ms, 1821ms total)
TA6E0 043:464 JLINK_IsHalted()  returns TRUE (0000ms, 1821ms total)
TA6E0 043:665 JLINK_IsHalted()  returns TRUE (0000ms, 1821ms total)
TA6E0 043:867 JLINK_IsHalted()  returns TRUE (0000ms, 1821ms total)
TA6E0 044:067 JLINK_IsHalted()  returns TRUE (0000ms, 1821ms total)
TA6E0 044:268 JLINK_IsHalted()  returns TRUE (0000ms, 1821ms total)
TA6E0 044:468 JLINK_IsHalted()  returns TRUE (0000ms, 1821ms total)
TA6E0 044:669 JLINK_IsHalted()  returns TRUE (0000ms, 1821ms total)
TA6E0 044:871 JLINK_IsHalted()  returns TRUE (0000ms, 1821ms total)
TA6E0 045:073 JLINK_IsHalted()  returns TRUE (0000ms, 1821ms total)
TA6E0 045:276 JLINK_IsHalted()  returns TRUE (0000ms, 1821ms total)
TA6E0 045:477 JLINK_IsHalted()  returns TRUE (0000ms, 1821ms total)
TA6E0 045:679 JLINK_IsHalted()  returns TRUE (0000ms, 1821ms total)
TB628 045:857 JLINK_ReadReg(R15 (PC))  returns 0x00400F46 (0001ms, 1822ms total)
TB628 045:859 JLINK_Step() -- Read from flash cache (2 bytes @ 0x00400F46) -- Read from flash cache (4 bytes @ 0x00400F78) -- Simulated  returns 0x00 (0000ms, 1822ms total)
TA6E0 045:859 JLINK_IsHalted()  returns TRUE (0000ms, 1822ms total)
TA6E0 045:859 JLINK_GetMOEs(...)  returns 0x01 (0000ms, 1822ms total)
TA6E0 045:859 JLINK_ReadReg(R15 (PC))  returns 0x00400F48 (0000ms, 1822ms total)
TB628 045:869 JLINK_ReadReg(R15 (PC))  returns 0x00400F48 (0000ms, 1822ms total)
TB628 045:869 JLINK_ReadReg(R13 (SP))  returns 0x20003930 (0000ms, 1822ms total)
TB628 045:871 JLINK_ReadMemHW(0x00400F48, 0x0004 Bytes, ...) -- CPU_ReadMem(4 bytes @ 0x00400F48) - Data: 98 47 0C 48  returns 0x00 (0001ms, 1823ms total)
TB628 045:873 JLINK_ReadReg(R15 (PC))  returns 0x00400F48 (0000ms, 1823ms total)
TB628 045:873 JLINK_Step() -- Read from flash cache (2 bytes @ 0x00400F48) -- Simulated  returns 0x00 (0000ms, 1823ms total)
TA6E0 045:873 JLINK_IsHalted()  returns TRUE (0001ms, 1824ms total)
TA6E0 045:874 JLINK_GetMOEs(...)  returns 0x01 (0000ms, 1823ms total)
TA6E0 045:874 JLINK_ReadReg(R15 (PC))  returns 0x00400828 (0000ms, 1823ms total)
TB628 045:883 JLINK_ReadReg(R15 (PC))  returns 0x00400828 (0000ms, 1823ms total)
TB628 045:883 JLINK_ReadReg(R13 (SP))  returns 0x20003930 (0000ms, 1823ms total)
TB628 045:884 JLINK_ReadMemHW(0x00400828, 0x0004 Bytes, ...) -- CPU_ReadMem(4 bytes @ 0x00400828) - Data: 10 B5 0E 48  returns 0x00 (0001ms, 1824ms total)
TB628 045:885 JLINK_ReadReg(R0)  returns 0x00401940 (0000ms, 1824ms total)
TB628 045:885 JLINK_ReadReg(R1)  returns 0x00000000 (0000ms, 1824ms total)
TB628 045:885 JLINK_ReadReg(R2)  returns 0x00400000 (0000ms, 1824ms total)
TB628 045:885 JLINK_ReadReg(R3)  returns 0x00400829 (0000ms, 1824ms total)
TB628 045:885 JLINK_ReadReg(R4)  returns 0x00000003 (0000ms, 1824ms total)
TB628 045:885 JLINK_ReadReg(R5)  returns 0x00000000 (0000ms, 1824ms total)
TB628 045:886 JLINK_ReadReg(R6)  returns 0x20003915 (0000ms, 1825ms total)
TB628 045:886 JLINK_ReadReg(R7)  returns 0x00400FF9 (0000ms, 1825ms total)
TB628 045:886 JLINK_ReadReg(R8)  returns 0x200004F0 (0000ms, 1825ms total)
TB628 045:886 JLINK_ReadReg(R9)  returns 0x5822E641 (0000ms, 1825ms total)
TB628 045:886 JLINK_ReadReg(R10)  returns 0x84191629 (0000ms, 1825ms total)
TB628 045:886 JLINK_ReadReg(R11)  returns 0x809C8072 (0000ms, 1825ms total)
TB628 045:886 JLINK_ReadReg(R12)  returns 0x200038B1 (0000ms, 1825ms total)
TB628 045:886 JLINK_ReadReg(R13 (SP))  returns 0x20003930 (0000ms, 1825ms total)
TB628 045:886 JLINK_ReadReg(R14)  returns 0x00400F4B (0000ms, 1825ms total)
TB628 045:886 JLINK_ReadReg(R15 (PC))  returns 0x00400828 (0000ms, 1825ms total)
TB628 045:886 JLINK_ReadReg(XPSR)  returns 0x61000000 (0000ms, 1825ms total)
TB628 045:886 JLINK_ReadReg(MSP)  returns 0x20003930 (0000ms, 1825ms total)
TB628 045:886 JLINK_ReadReg(PSP)  returns 0x7989C000 (0000ms, 1825ms total)
TB628 045:886 JLINK_ReadReg(PRIMASK)  returns 0x00000000 (0000ms, 1825ms total)
TB628 045:886 JLINK_ReadReg(BASEPRI)  returns 0x00000000 (0000ms, 1825ms total)
TB628 045:887 JLINK_ReadReg(FAULTMASK)  returns 0x00000000 (0000ms, 1825ms total)
TB628 045:887 JLINK_ReadReg(CONTROL)  returns 0x00000000 (0000ms, 1825ms total)
TB628 045:887 JLINK_ReadMemHW(0x00400F4A, 0x0004 Bytes, ...) -- CPU_ReadMem(4 bytes @ 0x00400F4A) - Data: 0C 48 0C 4B  returns 0x00 (0001ms, 1826ms total)
TB628 045:889 JLINK_ReadMemHW(0x00400F4A, 0x0002 Bytes, ...) -- CPU_ReadMem(2 bytes @ 0x00400F4A) - Data: 0C 48  returns 0x00 (0000ms, 1826ms total)
TB628 045:890 JLINK_ReadReg(R15 (PC))  returns 0x00400828 (0000ms, 1826ms total)
TB628 045:890 JLINK_SetBPEx(Addr = 0x00400F4A, Type = 0xFFFFFFF2)  returns 0x00000005 (0000ms, 1826ms total)
TB628 045:890 JLINK_GetBPInfo(BPHandle = 5)  returns 0x00 (0000ms, 1826ms total)
TB628 045:891 JLINK_Go() -- CPU_WriteMem(4 bytes @ 0xE0002000) -- CPU_WriteMem(4 bytes @ 0xE0002000) -- CPU_WriteMem(4 bytes @ 0xE0002000) -- CPU_WriteMem(4 bytes @ 0xE0002000) -- CPU_WriteMem(4 bytes @ 0xE0001000) -- CPU_ReadMem(4 bytes @ 0xE0001000) -- CPU_WriteMem(4 bytes @ 0xE000ED30) -- CPU_WriteMem(4 bytes @ 0xE0001020) -- CPU_WriteMem(4 bytes @ 0xE0001030) -- CPU_WriteMem(4 bytes @ 0xE0001040) -- CPU_WriteMem(4 bytes @ 0xE0001050) -- CPU_WriteMem(4 bytes @ 0xE0001024)
 -- CPU_WriteMem(4 bytes @ 0xE0001034) -- CPU_WriteMem(4 bytes @ 0xE0001044) -- CPU_WriteMem(4 bytes @ 0xE0001054) -- CPU_WriteMem(4 bytes @ 0xE0001028) -- CPU_WriteMem(4 bytes @ 0xE0001038) -- CPU_WriteMem(4 bytes @ 0xE0001048) -- CPU_WriteMem(4 bytes @ 0xE0001058) -- CPU_WriteMem(4 bytes @ 0xE0002014) -- CPU_WriteMem(4 bytes @ 0xE0001004) (0009ms, 1835ms total)
TA6E0 045:900 JLINK_IsHalted()  returns FALSE (0001ms, 1836ms total)
TA6E0 045:921 JLINK_IsHalted()  returns TRUE (0004ms, 1839ms total)
TA6E0 045:925 JLINK_GetMOEs(...) -- CPU_ReadMem(4 bytes @ 0xE000ED30)  returns 0x01 (0001ms, 1836ms total)
TA6E0 045:926 JLINK_ReadReg(R15 (PC))  returns 0x00400F4A (0000ms, 1836ms total)
TB628 045:930 JLINK_ReadReg(R15 (PC))  returns 0x00400F4A (0000ms, 1836ms total)
TB628 045:930 JLINK_ReadReg(R13 (SP))  returns 0x20003930 (0000ms, 1836ms total)
TB628 045:930 JLINK_ReadMemHW(0x00400F4A, 0x0004 Bytes, ...) -- CPU_ReadMem(4 bytes @ 0x00400F4A) - Data: 0C 48 0C 4B  returns 0x00 (0001ms, 1837ms total)
TA6E0 046:127 JLINK_IsHalted()  returns TRUE (0000ms, 1837ms total)
TA6E0 046:329 JLINK_IsHalted()  returns TRUE (0000ms, 1837ms total)
TA6E0 046:529 JLINK_IsHalted()  returns TRUE (0000ms, 1837ms total)
T31F4 046:603 JLINK_ReadMem (0x40000000, 0x0168 Bytes, ...) -- CPU_ReadMem(360 bytes @ 0x40000000) - Data: 00 00 00 00 00 00 00 00 00 00 00 00 00 00 00 00 ...  returns 0x00 (0003ms, 1840ms total)
T31F4 046:611 JLINK_ReadMem (0x40000000, 0x0168 Bytes, ...) -- CPU_ReadMem(360 bytes @ 0x40000000) - Data: 00 00 00 00 00 00 00 00 00 00 00 00 00 00 00 00 ...  returns 0x00 (0004ms, 1844ms total)
TA6E0 046:730 JLINK_IsHalted()  returns TRUE (0000ms, 1844ms total)
TB628 046:883 JLINK_ReadMemHW(0x00400828, 0x0001 Bytes, ...) -- CPU_ReadMem(1 bytes @ 0x00400828) - Data: 10  returns 0x00 (0001ms, 1845ms total)
TA6E0 046:931 JLINK_IsHalted()  returns TRUE (0000ms, 1845ms total)
TB628 046:933 JLINK_ReadMemHW(0x0040039C, 0x0001 Bytes, ...) -- CPU_ReadMem(1 bytes @ 0x0040039C) - Data: 4F  returns 0x00 (0001ms, 1846ms total)
TA6E0 047:132 JLINK_IsHalted()  returns TRUE (0000ms, 1846ms total)
TA6E0 047:332 JLINK_IsHalted()  returns TRUE (0000ms, 1846ms total)
TA6E0 047:544 JLINK_IsHalted()  returns TRUE (0000ms, 1846ms total)
TB628 047:652 JLINK_GetBPInfo(BPHandle = 5)  returns 0x00 (0000ms, 1846ms total)
TB628 047:652 JLINK_ClrBPEx(BPHandle = 0x00000005)  returns 0x00 (0000ms, 1846ms total)
TB628 047:652 JLINK_ReadReg(R15 (PC))  returns 0x00400F4A (0001ms, 1847ms total)
TB628 047:653 JLINK_Step() -- Read from flash cache (2 bytes @ 0x00400F4A) -- CPU_ReadMem(4 bytes @ 0xE0001004) -- Read from flash cache (4 bytes @ 0x00400F7C) -- Simulated  returns 0x00 (0000ms, 1847ms total)
TA6E0 047:653 JLINK_IsHalted()  returns TRUE (0000ms, 1847ms total)
TA6E0 047:654 JLINK_GetMOEs(...)  returns 0x01 (0000ms, 1847ms total)
TA6E0 047:654 JLINK_ReadReg(R15 (PC))  returns 0x00400F4C (0000ms, 1847ms total)
TB628 047:663 JLINK_ReadReg(R15 (PC))  returns 0x00400F4C (0000ms, 1847ms total)
TB628 047:663 JLINK_ReadReg(R13 (SP))  returns 0x20003930 (0000ms, 1847ms total)
TB628 047:664 JLINK_ReadMemHW(0x00400F4C, 0x0004 Bytes, ...) -- CPU_ReadMem(4 bytes @ 0x00400F4C) - Data: 0C 4B 98 47  returns 0x00 (0001ms, 1848ms total)
TB628 047:666 JLINK_ReadReg(R15 (PC))  returns 0x00400F4C (0000ms, 1848ms total)
TB628 047:666 JLINK_Step() -- Read from flash cache (2 bytes @ 0x00400F4C) -- Read from flash cache (4 bytes @ 0x00400F80) -- Simulated  returns 0x00 (0000ms, 1848ms total)
TA6E0 047:666 JLINK_IsHalted()  returns TRUE (0000ms, 1848ms total)
TA6E0 047:666 JLINK_GetMOEs(...)  returns 0x01 (0000ms, 1848ms total)
TA6E0 047:666 JLINK_ReadReg(R15 (PC))  returns 0x00400F4E (0000ms, 1848ms total)
TB628 047:676 JLINK_ReadReg(R15 (PC))  returns 0x00400F4E (0000ms, 1848ms total)
TB628 047:676 JLINK_ReadReg(R13 (SP))  returns 0x20003930 (0000ms, 1848ms total)
TB628 047:685 JLINK_ReadMemHW(0x00400F4E, 0x0004 Bytes, ...) -- CPU_ReadMem(4 bytes @ 0x00400F4E) - Data: 98 47 0C 4B  returns 0x00 (0001ms, 1849ms total)
TB628 047:687 JLINK_ReadReg(R15 (PC))  returns 0x00400F4E (0000ms, 1849ms total)
TB628 047:687 JLINK_Step() -- Read from flash cache (2 bytes @ 0x00400F4E) -- Simulated  returns 0x00 (0000ms, 1849ms total)
TA6E0 047:687 JLINK_IsHalted()  returns TRUE (0000ms, 1849ms total)
TA6E0 047:687 JLINK_GetMOEs(...)  returns 0x01 (0000ms, 1849ms total)
TA6E0 047:687 JLINK_ReadReg(R15 (PC))  returns 0x0040039C (0000ms, 1849ms total)
TB628 047:697 JLINK_ReadReg(R15 (PC))  returns 0x0040039C (0000ms, 1849ms total)
TB628 047:697 JLINK_ReadReg(R13 (SP))  returns 0x20003930 (0000ms, 1849ms total)
TB628 047:697 JLINK_ReadMemHW(0x0040039C, 0x0004 Bytes, ...) -- CPU_ReadMem(4 bytes @ 0x0040039C) - Data: 4F F4 00 43  returns 0x00 (0001ms, 1850ms total)
TB628 047:698 JLINK_ReadReg(R0)  returns 0x400E1450 (0001ms, 1851ms total)
TB628 047:699 JLINK_ReadReg(R1)  returns 0x2000000C (0000ms, 1851ms total)
TB628 047:699 JLINK_ReadReg(R2)  returns 0x04000500 (0000ms, 1851ms total)
TB628 047:699 JLINK_ReadReg(R3)  returns 0x0040039D (0000ms, 1851ms total)
TB628 047:699 JLINK_ReadReg(R4)  returns 0x00000003 (0000ms, 1851ms total)
TB628 047:699 JLINK_ReadReg(R5)  returns 0x00000000 (0000ms, 1851ms total)
TB628 047:699 JLINK_ReadReg(R6)  returns 0x20003915 (0000ms, 1851ms total)
TB628 047:699 JLINK_ReadReg(R7)  returns 0x00400FF9 (0000ms, 1851ms total)
TB628 047:699 JLINK_ReadReg(R8)  returns 0x200004F0 (0000ms, 1851ms total)
TB628 047:699 JLINK_ReadReg(R9)  returns 0x5822E641 (0000ms, 1851ms total)
TB628 047:699 JLINK_ReadReg(R10)  returns 0x84191629 (0000ms, 1851ms total)
TB628 047:699 JLINK_ReadReg(R11)  returns 0x809C8072 (0000ms, 1851ms total)
TB628 047:699 JLINK_ReadReg(R12)  returns 0x200038B1 (0000ms, 1851ms total)
TB628 047:699 JLINK_ReadReg(R13 (SP))  returns 0x20003930 (0001ms, 1852ms total)
TB628 047:700 JLINK_ReadReg(R14)  returns 0x00400F51 (0000ms, 1852ms total)
TB628 047:700 JLINK_ReadReg(R15 (PC))  returns 0x0040039C (0000ms, 1852ms total)
TB628 047:700 JLINK_ReadReg(XPSR)  returns 0x21000000 (0000ms, 1852ms total)
TB628 047:700 JLINK_ReadReg(MSP)  returns 0x20003930 (0000ms, 1852ms total)
TB628 047:700 JLINK_ReadReg(PSP)  returns 0x7989C000 (0000ms, 1852ms total)
TB628 047:700 JLINK_ReadReg(PRIMASK)  returns 0x00000000 (0000ms, 1852ms total)
TB628 047:700 JLINK_ReadReg(BASEPRI)  returns 0x00000000 (0000ms, 1852ms total)
TB628 047:700 JLINK_ReadReg(FAULTMASK)  returns 0x00000000 (0000ms, 1852ms total)
TB628 047:700 JLINK_ReadReg(CONTROL)  returns 0x00000000 (0000ms, 1852ms total)
TB628 047:701 JLINK_ReadMemHW(0x00400F50, 0x0004 Bytes, ...) -- CPU_ReadMem(4 bytes @ 0x00400F50) - Data: 0C 4B 98 47  returns 0x00 (0001ms, 1853ms total)
TB628 047:702 JLINK_ReadMemHW(0x00400F50, 0x0002 Bytes, ...) -- CPU_ReadMem(2 bytes @ 0x00400F50) - Data: 0C 4B  returns 0x00 (0001ms, 1854ms total)
TB628 047:704 JLINK_ReadReg(R15 (PC))  returns 0x0040039C (0000ms, 1854ms total)
TB628 047:704 JLINK_SetBPEx(Addr = 0x00400F50, Type = 0xFFFFFFF2)  returns 0x00000006 (0000ms, 1854ms total)
TB628 047:704 JLINK_GetBPInfo(BPHandle = 6)  returns 0x00 (0000ms, 1854ms total)
TB628 047:704 JLINK_Go() -- CPU_WriteMem(4 bytes @ 0xE0002000) -- CPU_WriteMem(4 bytes @ 0xE0002000) -- CPU_WriteMem(4 bytes @ 0xE0002000) -- CPU_WriteMem(4 bytes @ 0xE0002000) -- CPU_ReadMem(4 bytes @ 0xE0001000) -- CPU_WriteMem(4 bytes @ 0xE000ED30) -- CPU_WriteMem(4 bytes @ 0xE0002014) -- CPU_WriteMem(4 bytes @ 0xE0001004) (0007ms, 1861ms total)
TA6E0 047:711 JLINK_IsHalted()  returns TRUE (0004ms, 1865ms total)
TA6E0 047:715 JLINK_GetMOEs(...) -- CPU_ReadMem(4 bytes @ 0xE000ED30)  returns 0x01 (0001ms, 1862ms total)
TA6E0 047:716 JLINK_ReadReg(R15 (PC))  returns 0x00400F50 (0000ms, 1862ms total)
TB628 047:721 JLINK_ReadReg(R15 (PC))  returns 0x00400F50 (0000ms, 1862ms total)
TB628 047:721 JLINK_ReadReg(R13 (SP))  returns 0x20003930 (0000ms, 1862ms total)
TB628 047:722 JLINK_ReadMemHW(0x00400F50, 0x0004 Bytes, ...) -- CPU_ReadMem(4 bytes @ 0x00400F50) - Data: 0C 4B 98 47  returns 0x00 (0001ms, 1863ms total)
TA6E0 047:917 JLINK_IsHalted()  returns TRUE (0000ms, 1863ms total)
T31F4 048:082 JLINK_ReadMem (0x40000000, 0x0168 Bytes, ...) -- CPU_ReadMem(360 bytes @ 0x40000000) - Data: 00 00 00 00 00 00 00 00 00 00 00 00 00 00 00 00 ...  returns 0x00 (0003ms, 1866ms total)
T31F4 048:089 JLINK_ReadMem (0x40000000, 0x0168 Bytes, ...) -- CPU_ReadMem(360 bytes @ 0x40000000) - Data: 00 00 00 00 00 00 00 00 00 00 00 00 00 00 00 00 ...  returns 0x00 (0003ms, 1869ms total)
TA6E0 048:118 JLINK_IsHalted()  returns TRUE (0000ms, 1869ms total)
TA6E0 048:319 JLINK_IsHalted()  returns TRUE (0005ms, 1874ms total)
TB628 048:359 JLINK_ReadMemHW(0x0040039C, 0x0001 Bytes, ...) -- CPU_ReadMem(1 bytes @ 0x0040039C) - Data: 4F  returns 0x00 (0000ms, 1869ms total)
TB628 048:430 JLINK_ReadMemHW(0x00400CCC, 0x0001 Bytes, ...) -- CPU_ReadMem(1 bytes @ 0x00400CCC) - Data: 10  returns 0x00 (0001ms, 1870ms total)
TA6E0 048:537 JLINK_IsHalted()  returns TRUE (0000ms, 1870ms total)
TB628 048:607 JLINK_GetBPInfo(BPHandle = 6)  returns 0x00 (0000ms, 1870ms total)
TB628 048:607 JLINK_ClrBPEx(BPHandle = 0x00000006)  returns 0x00 (0000ms, 1870ms total)
TB628 048:607 JLINK_ReadReg(R15 (PC))  returns 0x00400F50 (0000ms, 1870ms total)
TB628 048:607 JLINK_Step() -- Read from flash cache (2 bytes @ 0x00400F50) -- CPU_ReadMem(4 bytes @ 0xE0001004) -- Read from flash cache (4 bytes @ 0x00400F84) -- Simulated  returns 0x00 (0001ms, 1871ms total)
TA6E0 048:609 JLINK_IsHalted()  returns TRUE (0000ms, 1871ms total)
TA6E0 048:609 JLINK_GetMOEs(...)  returns 0x01 (0000ms, 1871ms total)
TA6E0 048:609 JLINK_ReadReg(R15 (PC))  returns 0x00400F52 (0000ms, 1871ms total)
TB628 048:618 JLINK_ReadReg(R15 (PC))  returns 0x00400F52 (0000ms, 1871ms total)
TB628 048:618 JLINK_ReadReg(R13 (SP))  returns 0x20003930 (0000ms, 1871ms total)
TB628 048:620 JLINK_ReadMemHW(0x00400F52, 0x0004 Bytes, ...) -- CPU_ReadMem(4 bytes @ 0x00400F52) - Data: 98 47 0C 4B  returns 0x00 (0000ms, 1871ms total)
TB628 048:621 JLINK_ReadReg(R15 (PC))  returns 0x00400F52 (0000ms, 1871ms total)
TB628 048:621 JLINK_Step() -- Read from flash cache (2 bytes @ 0x00400F52) -- Simulated  returns 0x00 (0001ms, 1872ms total)
TA6E0 048:622 JLINK_IsHalted()  returns TRUE (0000ms, 1872ms total)
TA6E0 048:622 JLINK_GetMOEs(...)  returns 0x01 (0000ms, 1872ms total)
TA6E0 048:622 JLINK_ReadReg(R15 (PC))  returns 0x00400CCC (0000ms, 1872ms total)
TB628 048:632 JLINK_ReadReg(R15 (PC))  returns 0x00400CCC (0000ms, 1872ms total)
TB628 048:632 JLINK_ReadReg(R13 (SP))  returns 0x20003930 (0000ms, 1872ms total)
TB628 048:637 JLINK_ReadMemHW(0x00400CCC, 0x0004 Bytes, ...) -- CPU_ReadMem(4 bytes @ 0x00400CCC) - Data: 10 B5 0B 20  returns 0x00 (0000ms, 1872ms total)
TB628 048:638 JLINK_ReadReg(R0)  returns 0x400E1450 (0000ms, 1872ms total)
TB628 048:638 JLINK_ReadReg(R1)  returns 0x2000000C (0000ms, 1872ms total)
TB628 048:638 JLINK_ReadReg(R2)  returns 0x04000500 (0000ms, 1872ms total)
TB628 048:638 JLINK_ReadReg(R3)  returns 0x00400CCD (0000ms, 1872ms total)
TB628 048:638 JLINK_ReadReg(R4)  returns 0x00000003 (0000ms, 1872ms total)
TB628 048:638 JLINK_ReadReg(R5)  returns 0x00000000 (0000ms, 1872ms total)
TB628 048:638 JLINK_ReadReg(R6)  returns 0x20003915 (0000ms, 1872ms total)
TB628 048:638 JLINK_ReadReg(R7)  returns 0x00400FF9 (0000ms, 1872ms total)
TB628 048:638 JLINK_ReadReg(R8)  returns 0x200004F0 (0000ms, 1872ms total)
TB628 048:638 JLINK_ReadReg(R9)  returns 0x5822E641 (0000ms, 1872ms total)
TB628 048:638 JLINK_ReadReg(R10)  returns 0x84191629 (0000ms, 1872ms total)
TB628 048:638 JLINK_ReadReg(R11)  returns 0x809C8072 (0000ms, 1872ms total)
